;Version, 1, 0
;/M0/D (temp=1),;/M1/D (temp=300),;/M1/D (temp=1),;/M0/D (temp=300)
;X, Y,;X, Y,;X, Y,;X, Y
;Re, Re,;Re, Re,;Re, Re,;Re, Re
;Vgs, I,;Vgs, I,;Vgs, I,;Vgs, I
;xunit, A,;xunit, A,;xunit, A,;xunit, A
0,6.013962959997305e-09,0,1.526333142624746e-06,0,1.99819718644773e-08,0,5.675925354616244e-07
0.02,5.952305704834062e-09,0.02,1.898729801543053e-06,0.02,3.200214188150459e-08,0.02,7.251173279782535e-07
0.04,6.0719968017522e-09,0.04,2.345367143445559e-06,0.04,5.310898984430624e-08,0.04,9.25788113782265e-07
0.06,6.511928434296005e-09,0.06,2.87570346050942e-06,0.06,8.88994762611737e-08,0.06,1.179980526516604e-06
0.08,7.521978685577599e-09,0.08,3.498850436598247e-06,0.08,1.474581574827071e-07,0.08,1.499989749249155e-06
0.1,9.549274621484231e-09,0.1,4.223317254999667e-06,0.1,2.398737993085976e-07,0.1,1.900154882224751e-06
0.12,1.338802083005879e-08,0.12,5.056641918808454e-06,0.12,3.806728562868006e-07,0.12,2.396888441452781e-06
0.14,2.043440494578243e-08,0.14,6.00502289801987e-06,0.14,5.882107690538494e-07,0.14,3.008551465688853e-06
0.16,3.310210974679341e-08,0.16,7.07306518078687e-06,0.16,8.850714464848034e-07,0.16,3.754850823368033e-06
0.18,5.548676039524846e-08,0.18,8.263632792585943e-06,0.18,1.298378335686621e-06,0.18,4.656601761445677e-06
0.2,9.435745152263519e-08,0.2,9.577817389190512e-06,0.2,1.859694381264534e-06,0.2,5.735011449675237e-06
0.22,1.605098080460704e-07,0.22,1.101501632825556e-05,0.22,2.604029385670921e-06,0.22,7.010642724441665e-06
0.24,2.703846321147926e-07,0.24,1.257310067410033e-05,0.24,3.567558529442749e-06,0.24,8.502356095006871e-06
0.26,4.476067313924623e-07,0.26,1.424864596286492e-05,0.26,4.784077645874772e-06,0.26,1.022626946000376e-05
0.28,7.238304952635729e-07,0.28,1.603719656470762e-05,0.28,6.280872379765023e-06,0.28,1.219487475254114e-05
0.3,1.138239145205957e-06,0.3,1.793353707958831e-05,0.3,8.075192746119107e-06,0.3,1.441643241914821e-05
0.32,1.735513313929989e-06,0.32,1.993194967860282e-05,0.32,1.017247703239691e-05,0.32,1.689471642133233e-05
0.34,2.562967097804485e-06,0.34,2.202644291408986e-05,0.34,1.256679110808475e-05,0.34,1.962911895797013e-05
0.36,3.668159706172896e-06,0.36,2.421094391075527e-05,0.36,1.52430732593804e-05,0.36,2.261506449518858e-05
0.3800000000000001,5.097919048970027e-06,0.3800000000000001,2.647945118582504e-05,0.3800000000000001,1.818024679668478e-05,0.3800000000000001,2.584464234769211e-05
0.4000000000000001,6.898538966375982e-06,0.4000000000000001,2.882614928219095e-05,0.4000000000000001,2.135427505289648e-05,0.4000000000000001,2.93073524084293e-05
0.4200000000000001,9.115948921993361e-06,0.4200000000000001,3.124548893892328e-05,0.4200000000000001,2.474058653218495e-05,0.4200000000000001,3.299086696328263e-05
0.4400000000000001,1.179466337121626e-05,0.4400000000000001,3.373223787495102e-05,0.4400000000000001,2.831569152350363e-05,0.4400000000000001,3.688173454764596e-05
0.4600000000000001,1.497512540947094e-05,0.4600000000000001,3.628150771182386e-05,0.4600000000000001,3.205807275494901e-05,0.4600000000000001,4.09659800626675e-05
0.4800000000000001,1.868998114393666e-05,0.4800000000000001,3.888876239850794e-05,0.4800000000000001,3.594854004673485e-05,0.4800000000000001,4.522958150147137e-05
0.5000000000000001,2.29603463765793e-05,0.5000000000000001,4.154981297105361e-05,0.5000000000000001,3.997024379373609e-05,0.5000000000000001,4.965882356691212e-05
0.5200000000000001,2.779313163532465e-05,0.5200000000000001,4.426080277050887e-05,0.5200000000000001,4.410850152247781e-05,0.5200000000000001,5.424054109503242e-05
0.5400000000000001,3.318010508135414e-05,0.5400000000000001,4.701818648417499e-05,0.5400000000000001,4.835054246048758e-05,0.5400000000000001,5.896227137477969e-05
0.5600000000000002,3.909882331093209e-05,0.5600000000000002,4.981870565043724e-05,0.5600000000000002,5.268523356677496e-05,0.5600000000000002,6.381233588291576e-05
0.5800000000000002,4.551507306530164e-05,0.5800000000000002,5.265936262136501e-05,0.5800000000000002,5.71028210061869e-05,0.5800000000000002,6.877987043464119e-05
0.6000000000000002,5.238619005014302e-05,0.6000000000000002,5.553739442974893e-05,0.6000000000000002,6.159470231596551e-05,0.6000000000000002,7.385481976838653e-05
0.6200000000000002,5.966458604417512e-05,0.6200000000000002,5.845024756122824e-05,0.6200000000000002,6.615323365210335e-05,0.6200000000000002,7.902790917132376e-05
0.6400000000000002,6.730095754281972e-05,0.6400000000000002,6.139555428096279e-05,0.6400000000000002,7.077157080850099e-05,0.6400000000000002,8.429060252686919e-05
0.6600000000000003,7.524686558076584e-05,0.6600000000000003,6.437111089628778e-05,0.6600000000000003,7.544354013284838e-05,0.6600000000000003,8.963505342577009e-05
0.6800000000000003,8.345658057495964e-05,0.6800000000000003,6.737485813856006e-05,0.6800000000000003,8.016353465086588e-05,0.6800000000000003,9.505405381857749e-05
0.7000000000000003,9.188823219087209e-05,0.7000000000000003,7.040486370574673e-05,0.7000000000000003,8.492643080458435e-05,0.7000000000000003,0.0001005409830711032
0.7200000000000003,0.0001005043838568636,0.7200000000000003,7.345930691016559e-05,0.7200000000000003,8.972752171372168e-05,0.7200000000000003,0.0001060897591324799
0.7400000000000003,0.0001092721777256436,0.7400000000000003,7.653646531277796e-05,0.7400000000000003,9.456246350853617e-05,0.7400000000000003,0.0001116947927386765
0.7600000000000003,0.0001181631883064778,0.7600000000000003,7.963470318795316e-05,0.7600000000000003,9.942723191835368e-05,0.7600000000000003,0.0001173509450594064
0.7800000000000004,0.0001271530990602147,0.7800000000000004,8.275246164371059e-05,0.7800000000000004,0.000104318086869271,0.7800000000000004,0.0001230534888749183
0.8000000000000004,0.0001362212878624127,0.8000000000000004,8.588825021667461e-05,0.8000000000000004,0.0001092315433257412,0.8000000000000004,0.0001287980731800396
0.8200000000000004,0.0001453503809990358,0.8200000000000004,8.904063976414589e-05,0.8200000000000004,0.000114164347003262,0.8200000000000004,0.0001345806910109049
0.8400000000000004,0.0001545258140396136,0.8400000000000004,9.220825648466743e-05,0.8400000000000004,0.0001191134538921093,0.8400000000000004,0.0001403976502430959
0.8600000000000004,0.0001637354220344661,0.8600000000000004,9.538977691091778e-05,0.8600000000000004,0.000124076012777184,0.8600000000000004,0.0001462455470966827
0.8800000000000004,0.0001729690703946624,0.8800000000000004,9.858392373302872e-05,0.8800000000000004,0.0001290493501290223,0.8800000000000004,0.0001521212420895556
0.9000000000000005,0.0001822183305359237,0.9000000000000005,0.0001017894623253432,0.9000000000000005,0.0001340309568870669,0.9000000000000005,0.0001580218381963655
0.9200000000000005,0.0001914761998919887,0.9200000000000005,0.0001050051978643839,0.9200000000000005,0.0001390184767679483,0.9200000000000005,0.0001639446609907923
0.9400000000000005,0.0002007368633739011,0.9400000000000005,0.0001082299729399022,0.9400000000000005,0.0001440096958165669,0.9400000000000005,0.0001698872405704542
0.9600000000000005,0.0002099954921101932,0.9600000000000005,0.0001114626655739972,0.9600000000000005,0.0001490025329823838,0.9600000000000005,0.000175847295084797
0.9800000000000005,0.0002192480748721076,0.9800000000000005,0.0001147021875752681,0.9800000000000005,0.0001539950315524011,0.9800000000000005,0.0001818227157058446
1,0.0002284912776387928,1,0.000117947483165734,1,0.0001589853513095519,1,0.0001878115528994098
